# Hz S RI R 50
50000 -0.387576371 0.527596533
1049500 0.721648275 0.182703077
2049000 0.794947385 0.105923987
3048500 0.825805544 0.046023584
4048000 0.838563442 -1.2074e-05
5047500 0.843083858 -0.038742545
6047000 0.844215035 -0.07235179
7046500 0.843696534 -0.104223407
8046000 0.839496076 -0.132974028
9045500 0.834699392 -0.159954831
10045000 0.828619539 -0.186760336
11044500 0.821511328 -0.212609112
12044000 0.813327372 -0.237523928
13043500 0.804389178 -0.261727869
14043000 0.794840335 -0.285203337
15042500 0.784434139 -0.307976424
16042000 0.77300328 -0.330103933
17041500 0.761028647 -0.351790219
18041000 0.748468875 -0.373222708
19040500 0.734838247 -0.393836706
20040000 0.721048355 -0.413670182
21039500 0.706056177 -0.433100521
22039000 0.690705895 -0.451892554
23038500 0.674898982 -0.470481902
24038000 0.658102691 -0.488355785
25037500 0.640518128 -0.505397021
26037000 0.622778832 -0.522167146
27036500 0.604418575 -0.538283646
28036000 0.585281908 -0.553714931
29035500 0.565342366 -0.568494856
30035000 0.545044183 -0.582682311
31034500 0.524126231 -0.596594691
32034000 0.502478778 -0.609484612
33033500 0.479983657 -0.62110573
34033000 0.457418769 -0.632389008
35032500 0.434849828 -0.642375051
36032000 0.411810159 -0.652102291
37031500 0.387990981 -0.661255478
38031000 0.364006161 -0.66952908
39030500 0.338768839 -0.676726937
40030000 0.314213424 -0.682969987
41029500 0.288431704 -0.689026951
42029000 0.262571722 -0.693329095
43028500 0.23658201 -0.697084546
44028000 0.209663212 -0.699997663
45027500 0.1822654 -0.701689898
46027000 0.154889717 -0.701840221
47026500 0.127311334 -0.700145423
48026000 0.100097276 -0.697659313
49025500 0.073711268 -0.694878578
50025000 0.046844109 -0.690687179
51024500 0.01991841 -0.685649335
52024000 -0.007403719 -0.679477334
53023500 -0.034640125 -0.671804964
54023000 -0.061410993 -0.662688553
55022500 -0.087747342 -0.652663171
56022000 -0.113678239 -0.641274809
57021500 -0.139164417 -0.629203379
58021000 -0.164525687 -0.616068601
59020500 -0.189560323 -0.601886034
60020000 -0.21393162 -0.585623085
61019500 -0.23739992 -0.56867522
62019000 -0.260433048 -0.551103055
63018500 -0.282950103 -0.532062292
64018000 -0.304623037 -0.511633336
65017500 -0.325126558 -0.490068525
66017000 -0.344609528 -0.468204557
67016500 -0.363405168 -0.445097446
68016000 -0.380960524 -0.421540081
69015500 -0.397258758 -0.396362096
70015000 -0.412973761 -0.37090671
71014500 -0.42713055 -0.344684302
72014000 -0.440192639 -0.317293077
73013500 -0.451946049 -0.289623647
74013000 -0.462717443 -0.261612594
75012500 -0.471730798 -0.232937917
76012000 -0.479486525 -0.203832432
77011500 -0.485802412 -0.174686476
78011000 -0.49059081 -0.144901141
79010500 -0.494031161 -0.115251637
80010000 -0.496130138 -0.085580758
81009500 -0.496967583 -0.055947288
82009000 -0.496191859 -0.026478122
83008500 -0.494081199 0.003229004
84008000 -0.491133213 0.032368879
85007500 -0.486638277 0.061598226
86007000 -0.480341583 0.090778395
87006500 -0.473008394 0.118813946
88006000 -0.463692337 0.146997675
89005500 -0.453558325 0.173372998
90005000 -0.442755311 0.199322506
91004500 -0.4311302 0.22497043
92004000 -0.418752878 0.249968692
93003500 -0.405487865 0.274049401
94003000 -0.391608387 0.297918498
95002500 -0.377412527 0.32108125
96002000 -0.363078564 0.344364404
97001500 -0.348965823 0.369295805
98001000 -0.328015685 0.401371389
99000500 -0.30793339 0.41390413
100000000 -0.290294736 0.444024324
