# Hz S RI R 50
50000 1.000222563 -0.003049661
1049500 0.983287036 -0.048127245
2049000 0.97190231 -0.073547676
3048500 0.957609117 -0.095347531
4048000 0.942832529 -0.114211119
5047500 0.931959688 -0.122014738
6047000 0.920527338 -0.139364749
7046500 0.908853352 -0.158504351
8046000 0.890361189 -0.169921189
9045500 0.873071193 -0.170379549
10045000 0.873144567 -0.173706114
11044500 0.860108673 -0.195748478
12044000 0.845240116 -0.200431674
13043500 0.832196176 -0.206738933
14043000 0.828397333 -0.214744493
15042500 0.820246458 -0.227525785
16042000 0.811017394 -0.242859229
17041500 0.802617371 -0.262045592
18041000 0.768364071 -0.286731094
19040500 0.728467583 -0.281064867
20040000 0.699331521 -0.274309039
21039500 0.677149593 -0.263467609
22039000 0.663130223 -0.247130826
23038500 0.647757828 -0.235823124
24038000 0.658586084 -0.207540899
25037500 0.634673833 -0.210705965
26037000 0.622796356 -0.184919416
27036500 0.634109497 -0.144875213
28036000 0.660114645 -0.136575952
29035500 0.646128535 -0.150020718
30035000 0.665996611 -0.133088275
31034500 0.682200133 -0.112722583
32034000 0.698572397 -0.142397806
33033500 0.743628561 -0.149854406
34033000 0.776768803 -0.208482652
35032500 0.75097692 -0.258358001
36032000 0.717962384 -0.295032322
37031500 0.693064808 -0.311832875
38031000 0.632060825 -0.342635869
39030500 0.571566522 -0.33415845
40030000 0.52318561 -0.315107077
41029500 0.468618214 -0.280148029
42029000 0.427930474 -0.213702738
43028500 0.427240699 -0.133516266
44028000 0.454216182 -0.054245386
45027500 0.527550101 -0.020702185
46027000 0.588521122 -0.026935363
47026500 0.617408931 -0.062343582
48026000 0.638766407 -0.08829046
49025500 0.626178324 -0.125985398
50025000 0.596417903 -0.137957379
51024500 0.559750735 -0.109772704
52024000 0.558949589 -0.070089273
53023500 0.591187894 -0.046564206
54023000 0.61712706 -0.04767096
55022500 0.631037831 -0.057346247
56022000 0.626744031 -0.067398995
57021500 0.619724988 -0.048340845
58021000 0.637901663 -0.02811033
59020500 0.664782583 -0.021127114
60020000 0.687102615 -0.026558309
61019500 0.702732205 -0.033435866
62019000 0.72028017 -0.03589626
63018500 0.740835249 -0.043146152
64018000 0.760064184 -0.058976624
65017500 0.770278394 -0.076202079
66017000 0.775398552 -0.092309907
67016500 0.781904637 -0.105012767
68016000 0.789110064 -0.117717459
69015500 0.793901264 -0.13265632
70015000 0.797459781 -0.147959128
71014500 0.798796236 -0.161050483
72014000 0.799834489 -0.17452012
73013500 0.800196588 -0.187383204
74013000 0.799123406 -0.19983375
75012500 0.797665119 -0.212447434
76012000 0.795946717 -0.22513698
77011500 0.792353689 -0.236518993
78011000 0.787962257 -0.246987536
79010500 0.783556699 -0.257564216
80010000 0.778081238 -0.26654151
81009500 0.772898733 -0.274739265
82009000 0.767507553 -0.282051891
83008500 0.762029111 -0.28886947
84008000 0.757339656 -0.294499665
85007500 0.752587795 -0.299763441
86007000 0.749260008 -0.30424264
87006500 0.747784376 -0.311387985
88006000 0.739808619 -0.317010015
89005500 0.735077083 -0.320553302
90005000 0.731246531 -0.323566138
91004500 0.727083921 -0.325901687
92004000 0.725370526 -0.327933102
93003500 0.72434026 -0.330978751
94003000 0.723392665 -0.333649307
95002500 0.723079264 -0.336664766
96002000 0.723764955 -0.340287566
97001500 0.725399732 -0.344458073
98001000 0.730159223 -0.354455351
99000500 0.717440485 -0.358718067
100000000 0.720841169 -0.360374689
