# Hz S RI R 50
50000 -0.463372915 0.217563137
1049500 -0.309242993 0.068888939
2049000 -0.291146576 0.093704253
3048500 -0.276808112 0.118858091
4048000 -0.264114052 0.143186479
5047500 -0.250370413 0.167667686
6047000 -0.236870422 0.190688639
7046500 -0.22166042 0.213065445
8046000 -0.205922171 0.234606847
9045500 -0.189497932 0.254813075
10045000 -0.172083735 0.274205476
11044500 -0.15346542 0.292652696
12044000 -0.134257555 0.309679925
13043500 -0.114809937 0.325150787
14043000 -0.094469018 0.339664638
15042500 -0.073679104 0.352828323
16042000 -0.052288517 0.364640682
17041500 -0.031000206 0.375663548
18041000 -0.009175855 0.384893268
19040500 0.012636777 0.393508881
20040000 0.034785922 0.40036568
21039500 0.057086601 0.406677633
22039000 0.07983753 0.411955773
23038500 0.102399677 0.415556669
24038000 0.124751865 0.417779535
25037500 0.146872952 0.419079601
26037000 0.169463589 0.419240742
27036500 0.191758245 0.418477922
28036000 0.213408455 0.416187942
29035500 0.235047072 0.413226455
30035000 0.256098151 0.408968746
31034500 0.276413053 0.404566228
32034000 0.297136008 0.398198843
33033500 0.317017287 0.390742272
34033000 0.336121559 0.382758498
35032500 0.354126274 0.374099463
36032000 0.37178874 0.364094525
37031500 0.389109641 0.353998452
38031000 0.405474394 0.343356698
39030500 0.421334505 0.332140743
40030000 0.436692923 0.320135951
41029500 0.451579511 0.30804789
42029000 0.465479224 0.295660465
43028500 0.479239165 0.283324062
44028000 0.492499083 0.270179539
45027500 0.506217539 0.255731999
46027000 0.518782854 0.240676939
47026500 0.530132055 0.225057646
48026000 0.540979385 0.208743676
49025500 0.55041188 0.191747128
50025000 0.55868113 0.175218343
51024500 0.56648606 0.158854141
52024000 0.573970317 0.142071098
53023500 0.580831289 0.125365689
54023000 0.587335109 0.10779383
55022500 0.59308499 0.089682996
56022000 0.597652494 0.071268022
57021500 0.600981414 0.053256638
58021000 0.603443026 0.035709362
59020500 0.606298089 0.017630062
60020000 0.608103632 -0.000301817
61019500 0.608667135 -0.018915811
62019000 0.608560383 -0.036559429
63018500 0.607669532 -0.054145265
64018000 0.607547581 -0.072390809
65017500 0.605748116 -0.091064952
66017000 0.602314949 -0.108645878
67016500 0.598938524 -0.12675479
68016000 0.59486407 -0.143994823
69015500 0.590129733 -0.160158619
70015000 0.585251152 -0.178208425
71014500 0.579174816 -0.194415941
72014000 0.572645783 -0.211013361
73013500 0.565659165 -0.227009564
74013000 0.558207571 -0.243190094
75012500 0.550150096 -0.259230971
76012000 0.54114294 -0.27483052
77011500 0.532182693 -0.290216445
78011000 0.522405028 -0.304763227
79010500 0.512140512 -0.319633424
80010000 0.501498997 -0.334007143
81009500 0.490317404 -0.348181217
82009000 0.479030758 -0.362210154
83008500 0.466961443 -0.376010298
84008000 0.454547256 -0.389849722
85007500 0.441211938 -0.403323084
86007000 0.426930695 -0.416471034
87006500 0.41160199 -0.429632782
88006000 0.396430671 -0.44065693
89005500 0.381080657 -0.452233403
90005000 0.364646255 -0.463600546
91004500 0.347943633 -0.47475335
92004000 0.329887747 -0.485680043
93003500 0.311292588 -0.49532178
94003000 0.291466772 -0.504728078
95002500 0.271672338 -0.513180911
96002000 0.250380724 -0.521076261
97001500 0.228300943 -0.527902424
98001000 0.204151391 -0.533411681
99000500 0.184531092 -0.535699546
100000000 0.161273345 -0.540703535
