# Hz S RI R 50
50000 0.999982178 -0.000198724
1049500 0.999298036 -0.026099774
2049000 0.998163759 -0.042568352
3048500 0.996782124 -0.059563934
4048000 0.991082012 -0.072847798
5047500 0.992374777 -0.088309153
6047000 0.990990698 -0.104587823
7046500 0.985987722 -0.126966446
8046000 0.972726106 -0.137784376
9045500 0.976096987 -0.148016586
10045000 0.972850143 -0.17205201
11044500 0.962275683 -0.195688515
12044000 0.940476 -0.202086746
13043500 0.943515121 -0.206227868
14043000 0.945264935 -0.234769046
15042500 0.92546457 -0.263937413
16042000 0.896467924 -0.260341525
17041500 0.897522389 -0.262982755
18041000 0.910985827 -0.291473895
19040500 0.882915139 -0.333829343
20040000 0.842862963 -0.331653118
21039500 0.827722191 -0.332906901
22039000 0.83951801 -0.347665816
23038500 0.795555055 -0.395107597
24038000 0.744474232 -0.373908936
25037500 0.727759182 -0.379098534
26037000 0.715148746 -0.363084971
27036500 0.683423817 -0.408409297
28036000 0.629100441 -0.377363353
29035500 0.578212738 -0.348873287
30035000 0.579527974 -0.268794357
31034500 0.624069273 -0.293919891
32034000 0.544427216 -0.24707137
33033500 0.602820396 -0.108029246
34033000 0.712089061 -0.141983017
35032500 0.742669284 -0.219776347
36032000 0.712227642 -0.250975042
37031500 0.700741112 -0.275277704
38031000 0.66328758 -0.292844533
39030500 0.674624562 -0.280918717
40030000 0.650907874 -0.325027048
41029500 0.594261765 -0.331866294
42029000 0.523339927 -0.282290518
43028500 0.557287514 -0.220859169
44028000 0.532938897 -0.229956567
45027500 0.517445862 -0.135940715
46027000 0.616234302 -0.076396062
47026500 0.716240704 -0.111291095
48026000 0.745444595 -0.214534744
49025500 0.690217494 -0.220736905
50025000 0.674727559 -0.239057958
51024500 0.66585052 -0.210192099
52024000 0.697132825 -0.237346529
53023500 0.669592618 -0.253585547
54023000 0.660122871 -0.235819235
55022500 0.684414267 -0.216061025
56022000 0.730433762 -0.255844086
57021500 0.705941081 -0.320574551
58021000 0.644711971 -0.329519182
59020500 0.624224483 -0.273962914
60020000 0.681805491 -0.282339215
61019500 0.662721812 -0.347904115
62019000 0.58284223 -0.350634753
63018500 0.554517269 -0.257029652
64018000 0.651933372 -0.234393849
65017500 0.672043204 -0.311527073
66017000 0.613656342 -0.34222877
67016500 0.57781279 -0.287334591
68016000 0.637199282 -0.262867957
69015500 0.675746977 -0.320516228
70015000 0.617289423 -0.368321716
71014500 0.566786587 -0.328145653
72014000 0.615520536 -0.293554484
73013500 0.638176083 -0.353660255
74013000 0.58373022 -0.391361027
75012500 0.526062726 -0.354227513
76012000 0.559550046 -0.29870212
77011500 0.598907053 -0.339802891
78011000 0.561179876 -0.378222018
79010500 0.511318802 -0.353482872
80010000 0.537692964 -0.30474466
81009500 0.577363133 -0.344885438
82009000 0.532563149 -0.391107171
83008500 0.469455987 -0.363581836
84008000 0.473307281 -0.291650623
85007500 0.520272791 -0.269143849
86007000 0.618222415 -0.306726992
87006500 0.554514527 -0.407547146
88006000 0.489942818 -0.383011579
89005500 0.497430831 -0.37101832
90005000 0.469137609 -0.385024666
91004500 0.430040061 -0.400415658
92004000 0.384035557 -0.338767886
93003500 0.413705915 -0.304980009
94003000 0.393077611 -0.317323684
95002500 0.353547364 -0.23540382
96002000 0.418281793 -0.160518869
97001500 0.613322794 -0.241499647
98001000 0.522886872 -0.37901476
99000500 0.42354092 -0.39820671
100000000 0.332556664 -0.353652745
