# Hz S RI R 50
50000 -0.746109306 0.156324267
1049500 0.139043971 0.538843035
2049000 0.538597643 -0.035265889
3048500 -0.077326789 -0.494384139
4048000 -0.418666183 0.178379058
5047500 0.121833764 0.439933866
6047000 0.420545578 0.011029051
7046500 -0.021708186 -0.332430094
8046000 -0.32591477 0.15829268
9045500 0.095089003 0.420250833
10045000 0.383062779 0.092298753
11044500 0.071639917 -0.242209419
12044000 -0.264936268 0.109238021
13043500 0.052792344 0.409693509
14043000 0.354759424 0.179021269
15042500 0.159381285 -0.153232634
16042000 -0.184746772 0.081404767
17041500 0.049997035 0.391424685
18041000 0.345486104 0.224480167
19040500 0.224380165 -0.089161194
20040000 -0.107808753 0.053295403
21039500 0.039596959 0.362428218
22039000 0.328535884 0.271254509
23038500 0.284468561 -0.017814202
24038000 -0.020575692 0.041853293
25037500 0.063048183 0.337984412
26037000 0.337328553 0.288457453
27036500 0.341633468 0.025284891
28036000 0.06667909 0.013383349
29035500 0.08084429 0.287672966
30035000 0.330253958 0.298381984
31034500 0.402019947 0.068517491
32034000 0.174926906 -0.047288615
33033500 0.058726236 0.192102253
34033000 0.28253749 0.295588552
35032500 0.397955179 0.108756765
36032000 0.225096091 -0.021953128
37031500 0.09702707 0.163745194
38031000 0.282547086 0.290719717
39030500 0.42187643 0.136582702
40030000 0.297555476 -0.016741462
41029500 0.141542434 0.101748436
42029000 0.256804674 0.266518384
43028500 0.428467988 0.177878394
44028000 0.377957016 0.006568314
45027500 0.215872302 0.057799257
46027000 0.295327574 0.200952664
47026500 0.429327517 0.126160576
48026000 0.383277982 -0.0195968
49025500 0.218620389 0.019818559
50025000 0.268241494 0.187647715
51024500 0.429754227 0.156578466
52024000 0.43419376 0.005149793
53023500 0.301289826 -0.007235086
54023000 0.297048002 0.116019196
55022500 0.433115839 0.119646564
56022000 0.459820091 -0.017162181
57021500 0.339933663 -0.062202807
58021000 0.291101068 0.033504482
59020500 0.389266669 0.079881437
60020000 0.429888784 -0.020337883
61019500 0.328866839 -0.052510425
62019000 0.301396787 0.053216662
63018500 0.421783238 0.096979029
64018000 0.499013185 -0.004657392
65017500 0.436587125 -0.105208188
66017000 0.355108708 -0.06351713
67016500 0.413033425 -0.002411292
68016000 0.477005124 -0.082230068
69015500 0.411063969 -0.162883371
70015000 0.332746952 -0.119009599
71014500 0.379038602 -0.056801192
72014000 0.43628937 -0.116859011
73013500 0.385654866 -0.190131485
74013000 0.303352266 -0.155228123
75012500 0.331407219 -0.076550208
76012000 0.408232986 -0.108354642
77011500 0.388345777 -0.18199712
78011000 0.328169077 -0.174110546
79010500 0.335579514 -0.124609403
80010000 0.405385226 -0.146499738
81009500 0.389944732 -0.236318156
82009000 0.298700183 -0.247383534
83008500 0.28142932 -0.170863464
84008000 0.356865614 -0.165578931
85007500 0.358371675 -0.243626967
86007000 0.293501198 -0.270822495
87006500 0.257087826 -0.22783862
88006000 0.296631872 -0.203144192
89005500 0.308259248 -0.267560482
90005000 0.230824828 -0.286015361
91004500 0.193947851 -0.218967512
92004000 0.260362863 -0.171322152
93003500 0.308844774 -0.246534883
94003000 0.239839598 -0.304941862
95002500 0.173452466 -0.248081862
96002000 0.224271148 -0.190431877
97001500 0.285735368 -0.258019298
98001000 0.222339302 -0.314502835
99000500 0.168730244 -0.28301227
100000000 0.182907447 -0.23851028
